
T1884 000:343 SEGGER J-Link V4.98e Log File (0001ms, 0274ms total)
T1884 000:343 DLL Compiled: May  5 2015 11:00:52 (0001ms, 0274ms total)
T1884 000:343 Logging started @ 2015-09-01 15:04 (0001ms, 0274ms total)
T1884 000:344 JLINK_SetWarnOutHandler(...) (0000ms, 0274ms total)
T1884 000:344 JLINK_OpenEx(...)
Firmware: J-Link ARM V8 compiled Nov 28 2014 13:44:46
Hardware: V8.00
S/N: 17935099
Feature(s): RDI,FlashDL,FlashBP,JFlash  returns O.K. (0268ms, 0542ms total)
T1884 000:612 JLINK_SetErrorOutHandler(...) (0000ms, 0542ms total)
T1884 000:612 JLINK_ExecCommand("ProjectFile = "E:\NoodlefighterTMP\Nframe\examples\stm32f10x\project_keil5\JLinkSettings.ini"", ...)  returns 0x00 (0001ms, 0543ms total)
T1884 000:614 JLINK_ExecCommand("Device = STM32F103ZE", ...)Device "STM32F103ZE" selected.  returns 0x00 (0003ms, 0546ms total)
T1884 000:617 JLINK_ExecCommand("DisableConnectionTimeout", ...)  returns 0x01 (0000ms, 0546ms total)
T1884 000:617 JLINK_GetHardwareVersion()  returns 0x13880 (0000ms, 0546ms total)
T1884 000:617 JLINK_GetDLLVersion()  returns 49805 (0000ms, 0546ms total)
T1884 000:617 JLINK_GetFirmwareString(...) (0000ms, 0546ms total)
T1884 000:618 JLINK_GetDLLVersion()  returns 49805 (0001ms, 0547ms total)
T1884 000:619 JLINK_GetCompileDateTime() (0000ms, 0547ms total)
T1884 000:620 JLINK_GetFirmwareString(...) (0000ms, 0547ms total)
T1884 000:621 JLINK_GetHardwareVersion()  returns 0x13880 (0000ms, 0547ms total)
T1884 000:629 JLINK_TIF_Select(JLINKARM_TIF_SWD)  returns 0x00 (0003ms, 0550ms total)
T1884 000:632 JLINK_SetSpeed(5000) (0000ms, 0550ms total)
T1884 000:632 JLINK_GetId() >0x108 TIF>Found SWD-DP with ID 0x1BA01477 >0x0D TIF> >0x28 TIF> >0x0D TIF> >0x28 TIF> >0x0D TIF> >0x21 TIF> >0x0D TIF> >0x28 TIF> >0x0D TIF> >0x28 TIF> >0x0D TIF> >0x28 TIF> >0x0D TIF> >0x21 TIF> >0x0D TIF> >0x21 TIF> >0x0D TIF> >0x28 TIF> >0x0D TIF> >0x21 TIF> >0x0D TIF> >0x21 TIF> >0x108 TIF>Found SWD-DP with ID 0x1BA01477 >0x0D TIF> >0x21 TIF> >0x0D TIF> >0x28 TIF> >0x0D TIF> >0x28 TIF> >0x0D TIF> >0x21 TIF> >0x0D TIF> >0x28 TIF> >0x0D TIF> >0x21 TIF> >0x0D TIF> >0x21 TIF>
 >0x0D TIF> >0x21 TIF> >0x0D TIF> >0x21 TIF> >0x0D TIF> >0x28 TIF> >0x0D TIF> >0x28 TIF> >0x0D TIF> >0x21 TIF> >0x0D TIF> >0x28 TIF> >0x0D TIF> >0x28 TIF> >0x0D TIF> >0x28 TIF> >0x0D TIF> >0x21 TIF> >0x0D TIF> >0x21 TIF> >0x0D TIF> >0x28 TIF> >0x0D TIF> >0x21 TIF> >0x0D TIF> >0x21 TIF>Found Cortex-M3 r1p1, Little endian. -- CPU_WriteMem(4 bytes @ 0xE0002000) -- CPU_ReadMem(4 bytes @ 0xE000EDF0) -- CPU_ReadMem(4 bytes @ 0xE0002000)FPUnit: 6 code (BP) slots and 2 literal slots
 -- CPU_ReadMem(4 bytes @ 0xE000EDFC) -- CPU_ReadMem(4 bytes @ 0xE0001000) -- CPU_WriteMem(4 bytes @ 0xE0001000) -- CPU_ReadMem(4 bytes @ 0xE000ED88) -- CPU_WriteMem(4 bytes @ 0xE000ED88) -- CPU_ReadMem(4 bytes @ 0xE000ED88) -- CPU_WriteMem(4 bytes @ 0xE000ED88)CoreSight components:ROMTbl 0 @ E00FF000 -- CPU_ReadMem(16 bytes @ 0xE00FF000) -- CPU_ReadMem(16 bytes @ 0xE000EFF0) -- CPU_ReadMem(16 bytes @ 0xE000EFE0)ROMTbl 0 [0]: FFF0F000, CID: B105E00D, PID: 001BB000 SCS
 -- CPU_ReadMem(16 bytes @ 0xE0001FF0) -- CPU_ReadMem(16 bytes @ 0xE0001FE0)ROMTbl 0 [1]: FFF02000, CID: B105E00D, PID: 001BB002 DWT -- CPU_ReadMem(16 bytes @ 0xE0002FF0) -- CPU_ReadMem(16 bytes @ 0xE0002FE0)ROMTbl 0 [2]: FFF03000, CID: B105E00D, PID: 000BB003 FPB -- CPU_ReadMem(16 bytes @ 0xE0000FF0) -- CPU_ReadMem(16 bytes @ 0xE0000FE0)ROMTbl 0 [3]: FFF01000, CID: B105E00D, PID: 001BB001 ITM -- CPU_ReadMem(16 bytes @ 0xE00FF010) -- CPU_ReadMem(16 bytes @ 0xE0040FF0)
 -- CPU_ReadMem(16 bytes @ 0xE0040FE0)ROMTbl 0 [4]: FFF41000, CID: B105900D, PID: 001BB923 TPIU-Lite -- CPU_ReadMem(16 bytes @ 0xE0041FF0) -- CPU_ReadMem(16 bytes @ 0xE0041FE0)ROMTbl 0 [5]: FFF42000, CID: B105900D, PID: 101BB924 ETM-M3 >0x0D TIF> >0x21 TIF>  returns 0x1BA01477 (0068ms, 0618ms total)
T1884 000:700 JLINK_GetDLLVersion()  returns 49805 (0000ms, 0618ms total)
T1884 000:700 JLINK_CORE_GetFound()  returns 0x30000FF (0001ms, 0619ms total)
T1884 000:701 JLINK_GetDebugInfo(0x100) -- Value=0xE00FF003  returns 0x00 (0000ms, 0619ms total)
T1884 000:701 JLINK_ReadMem (0xE00FF000, 0x0020 Bytes, ...) -- CPU is running -- CPU_ReadMem(32 bytes @ 0xE00FF000) - Data: 03 F0 F0 FF 03 20 F0 FF 03 30 F0 FF 03 10 F0 FF ...  returns 0x00 (0001ms, 0620ms total)
T1884 000:702 JLINK_ReadMem (0xE000EFF0, 0x0010 Bytes, ...) -- CPU is running -- CPU_ReadMem(16 bytes @ 0xE000EFF0) - Data: 0D 00 00 00 E0 00 00 00 05 00 00 00 B1 00 00 00  returns 0x00 (0001ms, 0621ms total)
T1884 000:703 JLINK_ReadMem (0xE000EFD0, 0x0020 Bytes, ...) -- CPU is running -- CPU_ReadMem(32 bytes @ 0xE000EFD0) - Data: 04 00 00 00 00 00 00 00 00 00 00 00 00 00 00 00 ...  returns 0x00 (0001ms, 0622ms total)
T1884 000:704 JLINK_ReadMem (0xE0001FF0, 0x0010 Bytes, ...) -- CPU is running -- CPU_ReadMem(16 bytes @ 0xE0001FF0) - Data: 0D 00 00 00 E0 00 00 00 05 00 00 00 B1 00 00 00  returns 0x00 (0001ms, 0623ms total)
T1884 000:705 JLINK_ReadMem (0xE0001FD0, 0x0020 Bytes, ...) -- CPU is running -- CPU_ReadMem(32 bytes @ 0xE0001FD0) - Data: 04 00 00 00 00 00 00 00 00 00 00 00 00 00 00 00 ...  returns 0x00 (0001ms, 0624ms total)
T1884 000:706 JLINK_ReadMem (0xE0002FF0, 0x0010 Bytes, ...) -- CPU is running -- CPU_ReadMem(16 bytes @ 0xE0002FF0) - Data: 0D 00 00 00 E0 00 00 00 05 00 00 00 B1 00 00 00  returns 0x00 (0001ms, 0625ms total)
T1884 000:707 JLINK_ReadMem (0xE0002FD0, 0x0020 Bytes, ...) -- CPU is running -- CPU_ReadMem(32 bytes @ 0xE0002FD0) - Data: 04 00 00 00 00 00 00 00 00 00 00 00 00 00 00 00 ...  returns 0x00 (0001ms, 0626ms total)
T1884 000:708 JLINK_ReadMem (0xE0000FF0, 0x0010 Bytes, ...) -- CPU is running -- CPU_ReadMem(16 bytes @ 0xE0000FF0) - Data: 0D 00 00 00 E0 00 00 00 05 00 00 00 B1 00 00 00  returns 0x00 (0000ms, 0626ms total)
T1884 000:708 JLINK_ReadMem (0xE0000FD0, 0x0020 Bytes, ...) -- CPU is running -- CPU_ReadMem(32 bytes @ 0xE0000FD0) - Data: 04 00 00 00 00 00 00 00 00 00 00 00 00 00 00 00 ...  returns 0x00 (0001ms, 0627ms total)
T1884 000:709 JLINK_ReadMem (0xE0040FF0, 0x0010 Bytes, ...) -- CPU is running -- CPU_ReadMem(16 bytes @ 0xE0040FF0) - Data: 0D 00 00 00 90 00 00 00 05 00 00 00 B1 00 00 00  returns 0x00 (0001ms, 0628ms total)
T1884 000:710 JLINK_ReadMem (0xE0040FD0, 0x0020 Bytes, ...) -- CPU is running -- CPU_ReadMem(32 bytes @ 0xE0040FD0) - Data: 04 00 00 00 00 00 00 00 00 00 00 00 00 00 00 00 ...  returns 0x00 (0001ms, 0629ms total)
T1884 000:711 JLINK_ReadMem (0xE0041FF0, 0x0010 Bytes, ...) -- CPU is running -- CPU_ReadMem(16 bytes @ 0xE0041FF0) - Data: 0D 00 00 00 90 00 00 00 05 00 00 00 B1 00 00 00  returns 0x00 (0001ms, 0630ms total)
T1884 000:712 JLINK_ReadMem (0xE0041FD0, 0x0020 Bytes, ...) -- CPU is running -- CPU_ReadMem(32 bytes @ 0xE0041FD0) - Data: 04 00 00 00 00 00 00 00 00 00 00 00 00 00 00 00 ...  returns 0x00 (0001ms, 0631ms total)
T1884 000:713 JLINK_ReadMemU32(0xE000ED00, 0x0001 Items, ...) -- CPU is running -- CPU_ReadMem(4 bytes @ 0xE000ED00) - Data: 31 C2 1F 41  returns 0x01 (0001ms, 0632ms total)
T1884 000:714 JLINK_SetResetType(JLINKARM_RESET_TYPE_NORMAL)  returns JLINKARM_RESET_TYPE_NORMAL (0000ms, 0632ms total)
T1884 000:714 JLINK_Reset() -- CPU is running -- CPU_WriteMem(4 bytes @ 0xE000EDF0) -- CPU is running -- CPU_WriteMem(4 bytes @ 0xE000EDFC) >0x35 TIF> -- CPU is running -- CPU_WriteMem(4 bytes @ 0xE000ED0C) -- CPU is running -- CPU_ReadMem(4 bytes @ 0xE000EDF0) -- CPU is running -- CPU_ReadMem(4 bytes @ 0xE000EDF0) -- CPU is running -- CPU_WriteMem(4 bytes @ 0xE000EDF0) -- CPU is running -- CPU_WriteMem(4 bytes @ 0xE000EDFC) -- CPU is running -- CPU_ReadMem(4 bytes @ 0xE000EDF0)
 -- CPU_WriteMem(4 bytes @ 0xE0002000) -- CPU_ReadMem(4 bytes @ 0xE000EDFC) -- CPU_ReadMem(4 bytes @ 0xE0001000) (0023ms, 0655ms total)
T1884 000:737 JLINK_ReadReg(R15 (PC))  returns 0x08000144 (0000ms, 0655ms total)
T1884 000:737 JLINK_ReadReg(XPSR)  returns 0x01000000 (0000ms, 0655ms total)
T1884 000:737 JLINK_Halt()  returns 0x00 (0000ms, 0655ms total)
T1884 000:737 JLINK_IsHalted()  returns TRUE (0000ms, 0655ms total)
T1884 000:737 JLINK_ReadMemU32(0xE000EDF0, 0x0001 Items, ...) -- CPU_ReadMem(4 bytes @ 0xE000EDF0) - Data: 03 00 03 00  returns 0x01 (0001ms, 0656ms total)
T1884 000:738 JLINK_WriteU32(0xE000EDF0, 0xA05F0003) -- CPU_WriteMem(4 bytes @ 0xE000EDF0)  returns 0x00 (0001ms, 0657ms total)
T1884 000:739 JLINK_WriteU32(0xE000EDFC, 0x01000000) -- CPU_WriteMem(4 bytes @ 0xE000EDFC)  returns 0x00 (0001ms, 0658ms total)
T1884 000:743 JLINK_GetHWStatus(...)  returns 0x00 (0001ms, 0659ms total)
T1884 000:744 JLINK_GetNumBPUnits(Type = 0xFFFFFF00)  returns 0x06 (0000ms, 0659ms total)
T1884 000:744 JLINK_GetNumBPUnits(Type = 0xF0)  returns 0x2000 (0000ms, 0659ms total)
T1884 000:744 JLINK_GetNumWPUnits()  returns 0x04 (0000ms, 0659ms total)
T1884 000:745 JLINK_GetSpeed()  returns 0xFA0 (0000ms, 0659ms total)
T1884 000:746 JLINK_ReadMemU32(0xE000E004, 0x0001 Items, ...) -- CPU_ReadMem(4 bytes @ 0xE000E004) - Data: 01 00 00 00  returns 0x01 (0003ms, 0662ms total)
T1884 000:749 JLINK_ReadMemU32(0xE000E004, 0x0001 Items, ...) -- CPU_ReadMem(4 bytes @ 0xE000E004) - Data: 01 00 00 00  returns 0x01 (0001ms, 0663ms total)
T1884 000:750 JLINK_WriteMem(0xE0001000, 0x001C Bytes, ...) - Data: 01 00 00 00 00 00 00 00 00 00 00 00 00 00 00 00 ... -- CPU_WriteMem(28 bytes @ 0xE0001000)  returns 0x1C (0002ms, 0665ms total)
T1884 000:752 JLINK_ReadMem (0xE0001000, 0x001C Bytes, ...) -- CPU_ReadMem(28 bytes @ 0xE0001000) - Data: 01 00 00 40 00 00 00 00 00 00 00 00 00 00 00 00 ...  returns 0x00 (0001ms, 0666ms total)
T1884 000:753 JLINK_ReadReg(R15 (PC))  returns 0x08000144 (0000ms, 0666ms total)
T1884 000:753 JLINK_ReadReg(XPSR)  returns 0x01000000 (0000ms, 0666ms total)
T1884 000:887 JLINK_SetResetType(JLINKARM_RESET_TYPE_NORMAL)  returns JLINKARM_RESET_TYPE_NORMAL (0000ms, 0666ms total)
T1884 000:887 JLINK_Reset() -- CPU_WriteMem(4 bytes @ 0xE000EDF0) -- CPU_WriteMem(4 bytes @ 0xE000EDFC) >0x35 TIF> -- CPU_WriteMem(4 bytes @ 0xE000ED0C) -- CPU_ReadMem(4 bytes @ 0xE000EDF0) -- CPU_ReadMem(4 bytes @ 0xE000EDF0) -- CPU_WriteMem(4 bytes @ 0xE000EDF0) -- CPU_WriteMem(4 bytes @ 0xE000EDFC) -- CPU is running -- CPU_ReadMem(4 bytes @ 0xE000EDF0) -- CPU_WriteMem(4 bytes @ 0xE0002000) -- CPU_ReadMem(4 bytes @ 0xE000EDFC) -- CPU_ReadMem(4 bytes @ 0xE0001000) (0021ms, 0687ms total)
T1884 000:908 JLINK_ReadReg(R15 (PC))  returns 0x08000144 (0000ms, 0687ms total)
T1884 000:908 JLINK_ReadReg(XPSR)  returns 0x01000000 (0000ms, 0687ms total)
T1884 000:909 JLINK_ReadMem (0x08000144, 0x003C Bytes, ...) -- CPU_ReadMem(64 bytes @ 0x08000140) -- Updating C cache (64 bytes @ 0x08000140) -- Read from C cache (60 bytes @ 0x08000144) - Data: 06 48 80 47 06 48 00 47 FE E7 FE E7 FE E7 FE E7 ...  returns 0x00 (0001ms, 0688ms total)
T151C 002:863 JLINK_SetBPEx(Addr = 0x08001BFA, Type = 0xFFFFFFF2)  returns 0x00000001 (0001ms, 0689ms total)
T151C 002:864 JLINK_SetBPEx(Addr = 0x08001A7E, Type = 0xFFFFFFF2)  returns 0x00000002 (0000ms, 0689ms total)
T151C 002:864 JLINK_SetBPEx(Addr = 0x080019F6, Type = 0xFFFFFFF2)  returns 0x00000003 (0000ms, 0689ms total)
T151C 002:864 JLINK_SetBPEx(Addr = 0x0800028A, Type = 0xFFFFFFF2)  returns 0x00000004 (0000ms, 0689ms total)
T151C 002:864 JLINK_Go() -- CPU_WriteMem(4 bytes @ 0xE0002000) -- CPU_WriteMem(4 bytes @ 0xE0002000) -- CPU_WriteMem(4 bytes @ 0xE0002000) -- CPU_WriteMem(4 bytes @ 0xE0002000) -- CPU_ReadMem(4 bytes @ 0xE0001000) -- CPU_WriteMem(4 bytes @ 0xE0002008) -- CPU_WriteMem(4 bytes @ 0xE000200C) -- CPU_WriteMem(4 bytes @ 0xE0002010) -- CPU_WriteMem(4 bytes @ 0xE0002014) -- CPU_WriteMem(4 bytes @ 0xE0002018) -- CPU_WriteMem(4 bytes @ 0xE000201C) -- CPU_WriteMem(4 bytes @ 0xE0001004) (0008ms, 0697ms total)
T151C 002:972 JLINK_IsHalted()  returns TRUE (0003ms, 0700ms total)
T151C 002:975 JLINK_Halt()  returns 0x00 (0000ms, 0697ms total)
T151C 002:975 JLINK_IsHalted()  returns TRUE (0000ms, 0697ms total)
T151C 002:975 JLINK_IsHalted()  returns TRUE (0000ms, 0697ms total)
T151C 002:975 JLINK_IsHalted()  returns TRUE (0000ms, 0697ms total)
T151C 002:975 JLINK_ReadReg(R15 (PC))  returns 0x0800028A (0000ms, 0697ms total)
T151C 002:975 JLINK_ReadReg(XPSR)  returns 0x61000000 (0000ms, 0697ms total)
T151C 002:975 JLINK_ClrBPEx(BPHandle = 0x00000001)  returns 0x00 (0000ms, 0697ms total)
T151C 002:975 JLINK_ClrBPEx(BPHandle = 0x00000002)  returns 0x00 (0000ms, 0697ms total)
T151C 002:975 JLINK_ClrBPEx(BPHandle = 0x00000003)  returns 0x00 (0000ms, 0697ms total)
T151C 002:975 JLINK_ClrBPEx(BPHandle = 0x00000004)  returns 0x00 (0000ms, 0697ms total)
T151C 002:975 JLINK_ReadMemU32(0xE000ED30, 0x0001 Items, ...) -- CPU_ReadMem(4 bytes @ 0xE000ED30) - Data: 03 00 00 00  returns 0x01 (0001ms, 0698ms total)
T151C 002:976 JLINK_ReadMemU32(0xE0001028, 0x0001 Items, ...) -- CPU_ReadMem(4 bytes @ 0xE0001028) - Data: 00 00 00 00  returns 0x01 (0001ms, 0699ms total)
T151C 002:977 JLINK_ReadMemU32(0xE0001038, 0x0001 Items, ...) -- CPU_ReadMem(4 bytes @ 0xE0001038) - Data: 00 02 00 00  returns 0x01 (0001ms, 0700ms total)
T151C 002:978 JLINK_ReadMemU32(0xE0001048, 0x0001 Items, ...) -- CPU_ReadMem(4 bytes @ 0xE0001048) - Data: 00 00 00 00  returns 0x01 (0000ms, 0700ms total)
T151C 002:978 JLINK_ReadMemU32(0xE0001058, 0x0001 Items, ...) -- CPU_ReadMem(4 bytes @ 0xE0001058) - Data: 00 00 00 00  returns 0x01 (0001ms, 0701ms total)
T151C 002:979 JLINK_ReadReg(R0)  returns 0x00000008 (0000ms, 0701ms total)
T151C 002:979 JLINK_ReadReg(R1)  returns 0x40021000 (0000ms, 0701ms total)
T151C 002:979 JLINK_ReadReg(R2)  returns 0x00000001 (0000ms, 0701ms total)
T151C 002:979 JLINK_ReadReg(R3)  returns 0x000000A7 (0001ms, 0702ms total)
T151C 002:980 JLINK_ReadReg(R4)  returns 0x08001D54 (0000ms, 0702ms total)
T151C 002:980 JLINK_ReadReg(R5)  returns 0x08001D54 (0000ms, 0702ms total)
T151C 002:980 JLINK_ReadReg(R6)  returns 0x00000000 (0000ms, 0702ms total)
T151C 002:980 JLINK_ReadReg(R7)  returns 0x00000000 (0000ms, 0702ms total)
T151C 002:980 JLINK_ReadReg(R8)  returns 0x00000000 (0000ms, 0702ms total)
T151C 002:980 JLINK_ReadReg(R9)  returns 0x20000160 (0000ms, 0702ms total)
T151C 002:980 JLINK_ReadReg(R10)  returns 0x00000000 (0000ms, 0702ms total)
T151C 002:980 JLINK_ReadReg(R11)  returns 0x00000000 (0000ms, 0702ms total)
T151C 002:980 JLINK_ReadReg(R12)  returns 0x00000004 (0000ms, 0702ms total)
T151C 002:980 JLINK_ReadReg(R13 (SP))  returns 0x20000640 (0000ms, 0702ms total)
T151C 002:980 JLINK_ReadReg(R14)  returns 0x08000245 (0000ms, 0702ms total)
T151C 002:980 JLINK_ReadReg(R15 (PC))  returns 0x0800028A (0000ms, 0702ms total)
T151C 002:980 JLINK_ReadReg(XPSR)  returns 0x61000000 (0000ms, 0702ms total)
T151C 002:980 JLINK_ReadReg(MSP)  returns 0x20000640 (0000ms, 0702ms total)
T151C 002:980 JLINK_ReadReg(PSP)  returns 0x20001000 (0000ms, 0702ms total)
T151C 002:980 JLINK_ReadReg(CFBP)  returns 0x00000000 (0000ms, 0702ms total)
T1884 002:981 JLINK_ReadMem (0x20000644, 0x0004 Bytes, ...) -- CPU_ReadMem(64 bytes @ 0x20000640) -- Updating C cache (64 bytes @ 0x20000640) -- Read from C cache (4 bytes @ 0x20000644) - Data: 49 01 00 08  returns 0x00 (0001ms, 0703ms total)
T1884 002:982 JLINK_ReadMem (0x20000640, 0x0004 Bytes, ...) -- Read from C cache (4 bytes @ 0x20000640) - Data: 54 1D 00 08  returns 0x00 (0000ms, 0703ms total)
T1884 002:982 JLINK_ReadMem (0x2000064C, 0x0004 Bytes, ...) -- Read from C cache (4 bytes @ 0x2000064C) - Data: C7 2B 26 65  returns 0x00 (0000ms, 0703ms total)
T1884 002:982 JLINK_ReadMem (0x20000648, 0x0004 Bytes, ...) -- Read from C cache (4 bytes @ 0x20000648) - Data: 4C BB 48 E0  returns 0x00 (0000ms, 0703ms total)
T1884 003:002 JLINK_ReadMem (0x0800028A, 0x0002 Bytes, ...) -- CPU_ReadMem(64 bytes @ 0x08000280) -- Updating C cache (64 bytes @ 0x08000280) -- Read from C cache (2 bytes @ 0x0800028A) - Data: 4F F0  returns 0x00 (0002ms, 0705ms total)
T1884 003:004 JLINK_ReadMem (0x0800028C, 0x003C Bytes, ...) -- CPU_ReadMem(64 bytes @ 0x080002C0) -- Updating C cache (64 bytes @ 0x080002C0) -- Read from C cache (60 bytes @ 0x0800028C) - Data: 00 60 29 49 08 60 10 BD 10 B5 00 21 00 20 00 22 ...  returns 0x00 (0001ms, 0706ms total)
T151C 011:822 JLINK_SetBPEx(Addr = 0x08001A7E, Type = 0xFFFFFFF2)  returns 0x00000005 (0001ms, 0707ms total)
T151C 011:823 JLINK_SetBPEx(Addr = 0x080019F6, Type = 0xFFFFFFF2)  returns 0x00000006 (0000ms, 0707ms total)
T151C 011:823 JLINK_Go() -- CPU_WriteMem(4 bytes @ 0xE0002000) -- CPU_WriteMem(4 bytes @ 0xE0002000) -- CPU_ReadMem(4 bytes @ 0xE0001000) -- CPU_WriteMem(4 bytes @ 0xE0002008) -- CPU_WriteMem(4 bytes @ 0xE000200C) -- CPU_WriteMem(4 bytes @ 0xE0002010) -- CPU_WriteMem(4 bytes @ 0xE0002014) (0006ms, 0713ms total)
T151C 011:929 JLINK_IsHalted()  returns TRUE (0003ms, 0716ms total)
T151C 011:932 JLINK_Halt()  returns 0x00 (0000ms, 0713ms total)
T151C 011:932 JLINK_IsHalted()  returns TRUE (0000ms, 0713ms total)
T151C 011:932 JLINK_IsHalted()  returns TRUE (0000ms, 0713ms total)
T151C 011:932 JLINK_IsHalted()  returns TRUE (0000ms, 0713ms total)
T151C 011:932 JLINK_ReadReg(R15 (PC))  returns 0x08001A7E (0000ms, 0713ms total)
T151C 011:932 JLINK_ReadReg(XPSR)  returns 0x41000000 (0000ms, 0713ms total)
T151C 011:932 JLINK_ClrBPEx(BPHandle = 0x00000005)  returns 0x00 (0000ms, 0713ms total)
T151C 011:932 JLINK_ClrBPEx(BPHandle = 0x00000006)  returns 0x00 (0000ms, 0713ms total)
T151C 011:932 JLINK_ReadMemU32(0xE000ED30, 0x0001 Items, ...) -- CPU_ReadMem(4 bytes @ 0xE000ED30) - Data: 03 00 00 00  returns 0x01 (0001ms, 0714ms total)
T151C 011:933 JLINK_ReadMemU32(0xE0001028, 0x0001 Items, ...) -- CPU_ReadMem(4 bytes @ 0xE0001028) - Data: 00 00 00 00  returns 0x01 (0001ms, 0715ms total)
T151C 011:934 JLINK_ReadMemU32(0xE0001038, 0x0001 Items, ...) -- CPU_ReadMem(4 bytes @ 0xE0001038) - Data: 00 02 00 00  returns 0x01 (0001ms, 0716ms total)
T151C 011:935 JLINK_ReadMemU32(0xE0001048, 0x0001 Items, ...) -- CPU_ReadMem(4 bytes @ 0xE0001048) - Data: 00 00 00 00  returns 0x01 (0001ms, 0717ms total)
T151C 011:936 JLINK_ReadMemU32(0xE0001058, 0x0001 Items, ...) -- CPU_ReadMem(4 bytes @ 0xE0001058) - Data: 00 00 00 00  returns 0x01 (0001ms, 0718ms total)
T151C 011:938 JLINK_ReadReg(R0)  returns 0x08001BB1 (0000ms, 0718ms total)
T151C 011:938 JLINK_ReadReg(R1)  returns 0x00000000 (0000ms, 0718ms total)
T151C 011:938 JLINK_ReadReg(R2)  returns 0x40011800 (0000ms, 0718ms total)
T151C 011:938 JLINK_ReadReg(R3)  returns 0x10020004 (0000ms, 0718ms total)
T151C 011:938 JLINK_ReadReg(R4)  returns 0x08001D54 (0000ms, 0718ms total)
T151C 011:938 JLINK_ReadReg(R5)  returns 0x20000638 (0000ms, 0718ms total)
T151C 011:938 JLINK_ReadReg(R6)  returns 0x00000000 (0001ms, 0719ms total)
T151C 011:939 JLINK_ReadReg(R7)  returns 0x00000000 (0000ms, 0719ms total)
T151C 011:939 JLINK_ReadReg(R8)  returns 0x00000000 (0000ms, 0719ms total)
T151C 011:939 JLINK_ReadReg(R9)  returns 0x20000160 (0000ms, 0719ms total)
T151C 011:939 JLINK_ReadReg(R10)  returns 0x00000000 (0000ms, 0719ms total)
T151C 011:939 JLINK_ReadReg(R11)  returns 0x00000000 (0000ms, 0719ms total)
T151C 011:939 JLINK_ReadReg(R12)  returns 0x00000004 (0000ms, 0719ms total)
T151C 011:939 JLINK_ReadReg(R13 (SP))  returns 0x20000628 (0000ms, 0719ms total)
T151C 011:939 JLINK_ReadReg(R14)  returns 0x08001C1F (0000ms, 0719ms total)
T151C 011:939 JLINK_ReadReg(R15 (PC))  returns 0x08001A7E (0000ms, 0719ms total)
T151C 011:939 JLINK_ReadReg(XPSR)  returns 0x41000000 (0000ms, 0719ms total)
T151C 011:939 JLINK_ReadReg(MSP)  returns 0x20000628 (0000ms, 0719ms total)
T151C 011:939 JLINK_ReadReg(PSP)  returns 0x20001000 (0000ms, 0719ms total)
T151C 011:939 JLINK_ReadReg(CFBP)  returns 0x00000000 (0000ms, 0719ms total)
T1884 011:942 JLINK_ReadMem (0x20000634, 0x0004 Bytes, ...) -- CPU_ReadMem(64 bytes @ 0x20000600) -- Updating C cache (64 bytes @ 0x20000600) -- Read from C cache (4 bytes @ 0x20000634) - Data: 1F 1C 00 08  returns 0x00 (0001ms, 0720ms total)
T1884 011:944 JLINK_ReadMem (0x20000628, 0x0004 Bytes, ...) -- Read from C cache (4 bytes @ 0x20000628) - Data: 54 1D 00 08  returns 0x00 (0000ms, 0720ms total)
T1884 011:944 JLINK_ReadMem (0x2000062C, 0x0004 Bytes, ...) -- Read from C cache (4 bytes @ 0x2000062C) - Data: 54 1D 00 08  returns 0x00 (0000ms, 0720ms total)
T1884 011:944 JLINK_ReadMem (0x20000630, 0x0004 Bytes, ...) -- Read from C cache (4 bytes @ 0x20000630) - Data: 00 00 00 00  returns 0x00 (0000ms, 0720ms total)
T1884 011:944 JLINK_ReadMem (0x20000644, 0x0004 Bytes, ...) -- CPU_ReadMem(64 bytes @ 0x20000640) -- Updating C cache (64 bytes @ 0x20000640) -- Read from C cache (4 bytes @ 0x20000644) - Data: 51 1C 00 08  returns 0x00 (0002ms, 0722ms total)
T1884 011:957 JLINK_ReadMem (0x00000000, 0x0001 Bytes, ...) -- CPU_ReadMem(4 bytes @ 0x00000004) -- CPU_ReadMem(64 bytes @ 0x08000000) -- Updating C cache (64 bytes @ 0x08000000) -- Read from C cache (1 bytes @ 0x08000000) - Data: 48  returns 0x00 (0002ms, 0724ms total)
T1884 011:979 JLINK_ReadMem (0x08001A7E, 0x0002 Bytes, ...) -- CPU_ReadMem(64 bytes @ 0x08001A40) -- Updating C cache (64 bytes @ 0x08001A40) -- Read from C cache (2 bytes @ 0x08001A7E) - Data: 26 B1  returns 0x00 (0001ms, 0725ms total)
T1884 011:980 JLINK_ReadMem (0x08001A80, 0x003C Bytes, ...) -- CPU_ReadMem(64 bytes @ 0x08001A80) -- Updating C cache (64 bytes @ 0x08001A80) -- Read from C cache (60 bytes @ 0x08001A80) - Data: 01 2E 08 D0 02 2E 12 D1 0B E0 29 46 28 48 FF F7 ...  returns 0x00 (0002ms, 0727ms total)
T151C 014:827 JLINK_Step() -- Read from C cache (2 bytes @ 0x08001A7E) -- CPU_ReadMem(4 bytes @ 0xE0001004) -- Simulated  returns 0x00 (0002ms, 0729ms total)
T151C 014:829 JLINK_ReadReg(R15 (PC))  returns 0x08001A8A (0000ms, 0729ms total)
T151C 014:829 JLINK_ReadReg(XPSR)  returns 0x41000000 (0000ms, 0729ms total)
T151C 014:829 JLINK_ReadReg(R0)  returns 0x08001BB1 (0000ms, 0729ms total)
T151C 014:829 JLINK_ReadReg(R1)  returns 0x00000000 (0000ms, 0729ms total)
T151C 014:829 JLINK_ReadReg(R2)  returns 0x40011800 (0000ms, 0729ms total)
T151C 014:829 JLINK_ReadReg(R3)  returns 0x10020004 (0000ms, 0729ms total)
T151C 014:829 JLINK_ReadReg(R4)  returns 0x08001D54 (0000ms, 0729ms total)
T151C 014:829 JLINK_ReadReg(R5)  returns 0x20000638 (0000ms, 0729ms total)
T151C 014:829 JLINK_ReadReg(R6)  returns 0x00000000 (0000ms, 0729ms total)
T151C 014:829 JLINK_ReadReg(R7)  returns 0x00000000 (0000ms, 0729ms total)
T151C 014:829 JLINK_ReadReg(R8)  returns 0x00000000 (0000ms, 0729ms total)
T151C 014:829 JLINK_ReadReg(R9)  returns 0x20000160 (0000ms, 0729ms total)
T151C 014:829 JLINK_ReadReg(R10)  returns 0x00000000 (0001ms, 0730ms total)
T151C 014:830 JLINK_ReadReg(R11)  returns 0x00000000 (0000ms, 0730ms total)
T151C 014:830 JLINK_ReadReg(R12)  returns 0x00000004 (0000ms, 0730ms total)
T151C 014:830 JLINK_ReadReg(R13 (SP))  returns 0x20000628 (0000ms, 0730ms total)
T151C 014:830 JLINK_ReadReg(R14)  returns 0x08001C1F (0000ms, 0730ms total)
T151C 014:830 JLINK_ReadReg(R15 (PC))  returns 0x08001A8A (0000ms, 0730ms total)
T151C 014:830 JLINK_ReadReg(XPSR)  returns 0x41000000 (0000ms, 0730ms total)
T151C 014:830 JLINK_ReadReg(MSP)  returns 0x20000628 (0000ms, 0730ms total)
T151C 014:830 JLINK_ReadReg(PSP)  returns 0x20001000 (0000ms, 0730ms total)
T151C 014:830 JLINK_ReadReg(CFBP)  returns 0x00000000 (0000ms, 0730ms total)
T1884 014:832 JLINK_ReadMem (0x20000634, 0x0004 Bytes, ...) -- Read from C cache (4 bytes @ 0x20000634) - Data: 1F 1C 00 08  returns 0x00 (0000ms, 0730ms total)
T1884 014:832 JLINK_ReadMem (0x20000628, 0x0004 Bytes, ...) -- Read from C cache (4 bytes @ 0x20000628) - Data: 54 1D 00 08  returns 0x00 (0000ms, 0730ms total)
T1884 014:832 JLINK_ReadMem (0x2000062C, 0x0004 Bytes, ...) -- Read from C cache (4 bytes @ 0x2000062C) - Data: 54 1D 00 08  returns 0x00 (0000ms, 0730ms total)
T1884 014:832 JLINK_ReadMem (0x20000630, 0x0004 Bytes, ...) -- Read from C cache (4 bytes @ 0x20000630) - Data: 00 00 00 00  returns 0x00 (0000ms, 0730ms total)
T1884 014:832 JLINK_ReadMem (0x20000644, 0x0004 Bytes, ...) -- Read from C cache (4 bytes @ 0x20000644) - Data: 51 1C 00 08  returns 0x00 (0000ms, 0730ms total)
T1884 014:832 JLINK_ReadMem (0x00000000, 0x0001 Bytes, ...) -- Read from C cache (1 bytes @ 0x08000000) - Data: 48  returns 0x00 (0000ms, 0730ms total)
T1884 014:838 JLINK_ReadMem (0x08001A8A, 0x0002 Bytes, ...) -- Read from C cache (2 bytes @ 0x08001A8A) - Data: 29 46  returns 0x00 (0000ms, 0730ms total)
T1884 014:838 JLINK_ReadMem (0x08001A8C, 0x003C Bytes, ...) -- CPU_ReadMem(64 bytes @ 0x08001AC0) -- Updating C cache (64 bytes @ 0x08001AC0) -- Read from C cache (60 bytes @ 0x08001A8C) - Data: 28 48 FF F7 9D FF 04 46 0D E0 29 46 26 48 FF F7 ...  returns 0x00 (0001ms, 0731ms total)
T151C 016:434 JLINK_Step() -- Read from C cache (2 bytes @ 0x08001A8A) -- Simulated  returns 0x00 (0002ms, 0733ms total)
T151C 016:436 JLINK_ReadReg(R15 (PC))  returns 0x08001A8C (0000ms, 0733ms total)
T151C 016:436 JLINK_ReadReg(XPSR)  returns 0x41000000 (0000ms, 0733ms total)
T151C 016:436 JLINK_Step() -- Read from C cache (2 bytes @ 0x08001A8C) -- CPU_ReadMem(64 bytes @ 0x08001B00) -- Updating C cache (64 bytes @ 0x08001B00) -- Read from C cache (4 bytes @ 0x08001B30) -- Simulated  returns 0x00 (0001ms, 0734ms total)
T151C 016:437 JLINK_ReadReg(R15 (PC))  returns 0x08001A8E (0000ms, 0734ms total)
T151C 016:437 JLINK_ReadReg(XPSR)  returns 0x41000000 (0000ms, 0734ms total)
T151C 016:437 JLINK_SetBPEx(Addr = 0x08001A92, Type = 0xFFFFFFF2)  returns 0x00000007 (0000ms, 0734ms total)
T151C 016:437 JLINK_SetBPEx(Addr = 0x08001A7E, Type = 0xFFFFFFF2)  returns 0x00000008 (0000ms, 0734ms total)
T151C 016:437 JLINK_SetBPEx(Addr = 0x080019F6, Type = 0xFFFFFFF2)  returns 0x00000009 (0000ms, 0734ms total)
T151C 016:437 JLINK_Go() -- CPU_WriteMem(4 bytes @ 0xE0002000) -- CPU_WriteMem(4 bytes @ 0xE0002000) -- CPU_WriteMem(4 bytes @ 0xE0002000) -- CPU_ReadMem(4 bytes @ 0xE0001000) -- CPU_WriteMem(4 bytes @ 0xE0002008) -- CPU_WriteMem(4 bytes @ 0xE000200C) -- CPU_WriteMem(4 bytes @ 0xE0002010) -- CPU_WriteMem(4 bytes @ 0xE0001004) (0008ms, 0742ms total)
T151C 016:545 JLINK_IsHalted()  returns TRUE (0003ms, 0745ms total)
T151C 016:548 JLINK_Halt()  returns 0x00 (0000ms, 0742ms total)
T151C 016:548 JLINK_IsHalted()  returns TRUE (0000ms, 0742ms total)
T151C 016:548 JLINK_IsHalted()  returns TRUE (0000ms, 0742ms total)
T151C 016:548 JLINK_IsHalted()  returns TRUE (0000ms, 0742ms total)
T151C 016:548 JLINK_ReadReg(R15 (PC))  returns 0x080019F6 (0000ms, 0742ms total)
T151C 016:548 JLINK_ReadReg(XPSR)  returns 0x21000000 (0000ms, 0742ms total)
T151C 016:548 JLINK_ClrBPEx(BPHandle = 0x00000007)  returns 0x00 (0000ms, 0742ms total)
T151C 016:548 JLINK_ClrBPEx(BPHandle = 0x00000008)  returns 0x00 (0001ms, 0743ms total)
T151C 016:549 JLINK_ClrBPEx(BPHandle = 0x00000009)  returns 0x00 (0000ms, 0743ms total)
T151C 016:549 JLINK_ReadMemU32(0xE000ED30, 0x0001 Items, ...) -- CPU_ReadMem(4 bytes @ 0xE000ED30) - Data: 03 00 00 00  returns 0x01 (0001ms, 0744ms total)
T151C 016:550 JLINK_ReadMemU32(0xE0001028, 0x0001 Items, ...) -- CPU_ReadMem(4 bytes @ 0xE0001028) - Data: 00 00 00 00  returns 0x01 (0001ms, 0745ms total)
T151C 016:551 JLINK_ReadMemU32(0xE0001038, 0x0001 Items, ...) -- CPU_ReadMem(4 bytes @ 0xE0001038) - Data: 00 02 00 00  returns 0x01 (0001ms, 0746ms total)
T151C 016:552 JLINK_ReadMemU32(0xE0001048, 0x0001 Items, ...) -- CPU_ReadMem(4 bytes @ 0xE0001048) - Data: 00 00 00 00  returns 0x01 (0001ms, 0747ms total)
T151C 016:553 JLINK_ReadMemU32(0xE0001058, 0x0001 Items, ...) -- CPU_ReadMem(4 bytes @ 0xE0001058) - Data: 00 00 00 00  returns 0x01 (0001ms, 0748ms total)
T151C 016:554 JLINK_ReadReg(R0)  returns 0x20000050 (0000ms, 0748ms total)
T151C 016:554 JLINK_ReadReg(R1)  returns 0x00000018 (0000ms, 0748ms total)
T151C 016:554 JLINK_ReadReg(R2)  returns 0x20000040 (0000ms, 0748ms total)
T151C 016:554 JLINK_ReadReg(R3)  returns 0x20000064 (0000ms, 0748ms total)
T151C 016:554 JLINK_ReadReg(R4)  returns 0x08001D54 (0000ms, 0748ms total)
T151C 016:554 JLINK_ReadReg(R5)  returns 0x20000028 (0000ms, 0748ms total)
T151C 016:554 JLINK_ReadReg(R6)  returns 0x20000638 (0000ms, 0748ms total)
T151C 016:554 JLINK_ReadReg(R7)  returns 0x00001388 (0000ms, 0748ms total)
T151C 016:554 JLINK_ReadReg(R8)  returns 0x00000000 (0000ms, 0748ms total)
T151C 016:554 JLINK_ReadReg(R9)  returns 0x20000160 (0000ms, 0748ms total)
T151C 016:555 JLINK_ReadReg(R10)  returns 0x00000000 (0000ms, 0749ms total)
T151C 016:555 JLINK_ReadReg(R11)  returns 0x00000000 (0000ms, 0749ms total)
T151C 016:555 JLINK_ReadReg(R12)  returns 0x00000004 (0000ms, 0749ms total)
T151C 016:555 JLINK_ReadReg(R13 (SP))  returns 0x20000610 (0000ms, 0749ms total)
T151C 016:555 JLINK_ReadReg(R14)  returns 0x080019EB (0000ms, 0749ms total)
T151C 016:555 JLINK_ReadReg(R15 (PC))  returns 0x080019F6 (0000ms, 0749ms total)
T151C 016:555 JLINK_ReadReg(XPSR)  returns 0x21000000 (0000ms, 0749ms total)
T151C 016:555 JLINK_ReadReg(MSP)  returns 0x20000610 (0000ms, 0749ms total)
T151C 016:555 JLINK_ReadReg(PSP)  returns 0x20001000 (0000ms, 0749ms total)
T151C 016:555 JLINK_ReadReg(CFBP)  returns 0x00000000 (0000ms, 0749ms total)
T1884 016:556 JLINK_ReadMem (0x20000624, 0x0004 Bytes, ...) -- CPU_ReadMem(64 bytes @ 0x20000600) -- Updating C cache (64 bytes @ 0x20000600) -- Read from C cache (4 bytes @ 0x20000624) - Data: 93 1A 00 08  returns 0x00 (0001ms, 0750ms total)
T1884 016:557 JLINK_ReadMem (0x20000610, 0x0004 Bytes, ...) -- Read from C cache (4 bytes @ 0x20000610) - Data: 54 1D 00 08  returns 0x00 (0000ms, 0750ms total)
T1884 016:557 JLINK_ReadMem (0x20000614, 0x0004 Bytes, ...) -- Read from C cache (4 bytes @ 0x20000614) - Data: 38 06 00 20  returns 0x00 (0000ms, 0750ms total)
T1884 016:557 JLINK_ReadMem (0x20000618, 0x0004 Bytes, ...) -- Read from C cache (4 bytes @ 0x20000618) - Data: 00 00 00 00  returns 0x00 (0001ms, 0751ms total)
T1884 016:558 JLINK_ReadMem (0x2000061C, 0x0004 Bytes, ...) -- Read from C cache (4 bytes @ 0x2000061C) - Data: 00 00 00 00  returns 0x00 (0000ms, 0751ms total)
T1884 016:558 JLINK_ReadMem (0x20000620, 0x0004 Bytes, ...) -- Read from C cache (4 bytes @ 0x20000620) - Data: 00 00 00 00  returns 0x00 (0000ms, 0751ms total)
T1884 016:558 JLINK_ReadMem (0x20000634, 0x0004 Bytes, ...) -- Read from C cache (4 bytes @ 0x20000634) - Data: 1F 1C 00 08  returns 0x00 (0000ms, 0751ms total)
T1884 016:558 JLINK_ReadMem (0x20000628, 0x0004 Bytes, ...) -- Read from C cache (4 bytes @ 0x20000628) - Data: 54 1D 00 08  returns 0x00 (0000ms, 0751ms total)
T1884 016:558 JLINK_ReadMem (0x2000062C, 0x0004 Bytes, ...) -- Read from C cache (4 bytes @ 0x2000062C) - Data: 54 1D 00 08  returns 0x00 (0000ms, 0751ms total)
T1884 016:558 JLINK_ReadMem (0x20000630, 0x0004 Bytes, ...) -- Read from C cache (4 bytes @ 0x20000630) - Data: 00 00 00 00  returns 0x00 (0000ms, 0751ms total)
T1884 016:558 JLINK_ReadMem (0x20000644, 0x0004 Bytes, ...) -- CPU_ReadMem(64 bytes @ 0x20000640) -- Updating C cache (64 bytes @ 0x20000640) -- Read from C cache (4 bytes @ 0x20000644) - Data: 51 1C 00 08  returns 0x00 (0002ms, 0753ms total)
T1884 016:560 JLINK_ReadMem (0x00000000, 0x0004 Bytes, ...) -- CPU_ReadMem(4 bytes @ 0x00000004) -- CPU_ReadMem(64 bytes @ 0x08000000) -- Updating C cache (64 bytes @ 0x08000000) -- Read from C cache (4 bytes @ 0x08000000) - Data: 48 06 00 20  returns 0x00 (0004ms, 0757ms total)
T1884 016:582 JLINK_ReadMem (0x080019F6, 0x0002 Bytes, ...) -- CPU_ReadMem(64 bytes @ 0x080019C0) -- Updating C cache (64 bytes @ 0x080019C0) -- Read from C cache (2 bytes @ 0x080019F6) - Data: 00 F0  returns 0x00 (0002ms, 0759ms total)
T1884 016:584 JLINK_ReadMem (0x080019F8, 0x003C Bytes, ...) -- CPU_ReadMem(64 bytes @ 0x08001A00) -- Updating C cache (64 bytes @ 0x08001A00) -- Read from C cache (60 bytes @ 0x080019F8) - Data: 9F F8 2C 68 09 E0 E4 68 20 68 31 68 88 42 04 D1 ...  returns 0x00 (0002ms, 0761ms total)
T151C 018:332 JLINK_Step() -- Read from C cache (2 bytes @ 0x080019F6) -- CPU_ReadMem(4 bytes @ 0xE0001004) -- Read from C cache (2 bytes @ 0x080019F8) -- Simulated  returns 0x00 (0003ms, 0764ms total)
T151C 018:335 JLINK_ReadReg(R15 (PC))  returns 0x08001B38 (0000ms, 0764ms total)
T151C 018:335 JLINK_ReadReg(XPSR)  returns 0x21000000 (0000ms, 0764ms total)
T151C 018:335 JLINK_SetBPEx(Addr = 0x080019FA, Type = 0xFFFFFFF2)  returns 0x0000000A (0000ms, 0764ms total)
T151C 018:335 JLINK_SetBPEx(Addr = 0x08001A7E, Type = 0xFFFFFFF2)  returns 0x0000000B (0000ms, 0764ms total)
T151C 018:335 JLINK_SetBPEx(Addr = 0x080019F6, Type = 0xFFFFFFF2)  returns 0x0000000C (0000ms, 0764ms total)
T151C 018:335 JLINK_Go() -- CPU_WriteMem(4 bytes @ 0xE0002000) -- CPU_WriteMem(4 bytes @ 0xE0002000) -- CPU_WriteMem(4 bytes @ 0xE0002000) -- CPU_ReadMem(4 bytes @ 0xE0001000) -- CPU_WriteMem(4 bytes @ 0xE0002008) -- CPU_WriteMem(4 bytes @ 0xE0001004) (0006ms, 0770ms total)
T151C 018:441 JLINK_IsHalted()  returns TRUE (0003ms, 0773ms total)
T151C 018:444 JLINK_Halt()  returns 0x00 (0000ms, 0770ms total)
T151C 018:444 JLINK_IsHalted()  returns TRUE (0000ms, 0770ms total)
T151C 018:444 JLINK_IsHalted()  returns TRUE (0000ms, 0770ms total)
T151C 018:444 JLINK_IsHalted()  returns TRUE (0000ms, 0770ms total)
T151C 018:444 JLINK_ReadReg(R15 (PC))  returns 0x080019FA (0000ms, 0770ms total)
T151C 018:444 JLINK_ReadReg(XPSR)  returns 0x01000000 (0000ms, 0770ms total)
T151C 018:444 JLINK_ClrBPEx(BPHandle = 0x0000000A)  returns 0x00 (0000ms, 0770ms total)
T151C 018:444 JLINK_ClrBPEx(BPHandle = 0x0000000B)  returns 0x00 (0000ms, 0770ms total)
T151C 018:444 JLINK_ClrBPEx(BPHandle = 0x0000000C)  returns 0x00 (0000ms, 0770ms total)
T151C 018:444 JLINK_ReadMemU32(0xE000ED30, 0x0001 Items, ...) -- CPU_ReadMem(4 bytes @ 0xE000ED30) - Data: 03 00 00 00  returns 0x01 (0001ms, 0771ms total)
T151C 018:445 JLINK_ReadMemU32(0xE0001028, 0x0001 Items, ...) -- CPU_ReadMem(4 bytes @ 0xE0001028) - Data: 00 00 00 00  returns 0x01 (0001ms, 0772ms total)
T151C 018:446 JLINK_ReadMemU32(0xE0001038, 0x0001 Items, ...) -- CPU_ReadMem(4 bytes @ 0xE0001038) - Data: 00 02 00 00  returns 0x01 (0001ms, 0773ms total)
T151C 018:447 JLINK_ReadMemU32(0xE0001048, 0x0001 Items, ...) -- CPU_ReadMem(4 bytes @ 0xE0001048) - Data: 00 00 00 00  returns 0x01 (0001ms, 0774ms total)
T151C 018:448 JLINK_ReadMemU32(0xE0001058, 0x0001 Items, ...) -- CPU_ReadMem(4 bytes @ 0xE0001058) - Data: 00 00 00 00  returns 0x01 (0001ms, 0775ms total)
T151C 018:449 JLINK_ReadReg(R0)  returns 0x00000048 (0000ms, 0775ms total)
T151C 018:449 JLINK_ReadReg(R1)  returns 0x00000064 (0000ms, 0775ms total)
T151C 018:449 JLINK_ReadReg(R2)  returns 0x20000000 (0000ms, 0775ms total)
T151C 018:449 JLINK_ReadReg(R3)  returns 0x0100001C (0000ms, 0775ms total)
T151C 018:449 JLINK_ReadReg(R4)  returns 0x08001D54 (0001ms, 0776ms total)
T151C 018:450 JLINK_ReadReg(R5)  returns 0x20000028 (0000ms, 0776ms total)
T151C 018:450 JLINK_ReadReg(R6)  returns 0x20000638 (0000ms, 0776ms total)
T151C 018:450 JLINK_ReadReg(R7)  returns 0x00001388 (0000ms, 0776ms total)
T151C 018:450 JLINK_ReadReg(R8)  returns 0x00000000 (0000ms, 0776ms total)
T151C 018:450 JLINK_ReadReg(R9)  returns 0x20000160 (0000ms, 0776ms total)
T151C 018:450 JLINK_ReadReg(R10)  returns 0x00000000 (0000ms, 0776ms total)
T151C 018:450 JLINK_ReadReg(R11)  returns 0x00000000 (0000ms, 0776ms total)
T151C 018:450 JLINK_ReadReg(R12)  returns 0x00000004 (0000ms, 0776ms total)
T151C 018:450 JLINK_ReadReg(R13 (SP))  returns 0x20000610 (0000ms, 0776ms total)
T151C 018:450 JLINK_ReadReg(R14)  returns 0x08001B9F (0000ms, 0776ms total)
T151C 018:450 JLINK_ReadReg(R15 (PC))  returns 0x080019FA (0000ms, 0776ms total)
T151C 018:450 JLINK_ReadReg(XPSR)  returns 0x01000000 (0000ms, 0776ms total)
T151C 018:450 JLINK_ReadReg(MSP)  returns 0x20000610 (0000ms, 0776ms total)
T151C 018:451 JLINK_ReadReg(PSP)  returns 0x20001000 (0000ms, 0777ms total)
T151C 018:451 JLINK_ReadReg(CFBP)  returns 0x00000000 (0000ms, 0777ms total)
T1884 018:451 JLINK_ReadMem (0x20000624, 0x0004 Bytes, ...) -- CPU_ReadMem(64 bytes @ 0x20000600) -- Updating C cache (64 bytes @ 0x20000600) -- Read from C cache (4 bytes @ 0x20000624) - Data: 93 1A 00 08  returns 0x00 (0002ms, 0779ms total)
T1884 018:453 JLINK_ReadMem (0x20000610, 0x0004 Bytes, ...) -- Read from C cache (4 bytes @ 0x20000610) - Data: 54 1D 00 08  returns 0x00 (0000ms, 0779ms total)
T1884 018:453 JLINK_ReadMem (0x20000614, 0x0004 Bytes, ...) -- Read from C cache (4 bytes @ 0x20000614) - Data: 38 06 00 20  returns 0x00 (0000ms, 0779ms total)
T1884 018:453 JLINK_ReadMem (0x20000618, 0x0004 Bytes, ...) -- Read from C cache (4 bytes @ 0x20000618) - Data: 00 00 00 00  returns 0x00 (0001ms, 0780ms total)
T1884 018:454 JLINK_ReadMem (0x2000061C, 0x0004 Bytes, ...) -- Read from C cache (4 bytes @ 0x2000061C) - Data: 00 00 00 00  returns 0x00 (0000ms, 0780ms total)
T1884 018:454 JLINK_ReadMem (0x20000620, 0x0004 Bytes, ...) -- Read from C cache (4 bytes @ 0x20000620) - Data: 00 00 00 00  returns 0x00 (0000ms, 0780ms total)
T1884 018:454 JLINK_ReadMem (0x20000634, 0x0004 Bytes, ...) -- Read from C cache (4 bytes @ 0x20000634) - Data: 1F 1C 00 08  returns 0x00 (0000ms, 0780ms total)
T1884 018:454 JLINK_ReadMem (0x20000628, 0x0004 Bytes, ...) -- Read from C cache (4 bytes @ 0x20000628) - Data: 54 1D 00 08  returns 0x00 (0000ms, 0780ms total)
T1884 018:454 JLINK_ReadMem (0x2000062C, 0x0004 Bytes, ...) -- Read from C cache (4 bytes @ 0x2000062C) - Data: 54 1D 00 08  returns 0x00 (0000ms, 0780ms total)
T1884 018:454 JLINK_ReadMem (0x20000630, 0x0004 Bytes, ...) -- Read from C cache (4 bytes @ 0x20000630) - Data: 00 00 00 00  returns 0x00 (0000ms, 0780ms total)
T1884 018:454 JLINK_ReadMem (0x20000644, 0x0004 Bytes, ...) -- CPU_ReadMem(64 bytes @ 0x20000640) -- Updating C cache (64 bytes @ 0x20000640) -- Read from C cache (4 bytes @ 0x20000644) - Data: 51 1C 00 08  returns 0x00 (0002ms, 0782ms total)
T1884 018:456 JLINK_ReadMem (0x00000000, 0x0004 Bytes, ...) -- CPU_ReadMem(4 bytes @ 0x00000004) -- CPU_ReadMem(64 bytes @ 0x08000000) -- Updating C cache (64 bytes @ 0x08000000) -- Read from C cache (4 bytes @ 0x08000000) - Data: 48 06 00 20  returns 0x00 (0002ms, 0784ms total)
T1884 018:465 JLINK_ReadMem (0x080019FA, 0x0002 Bytes, ...) -- CPU_ReadMem(64 bytes @ 0x080019C0) -- Updating C cache (64 bytes @ 0x080019C0) -- Read from C cache (2 bytes @ 0x080019FA) - Data: 2C 68  returns 0x00 (0002ms, 0786ms total)
T1884 018:467 JLINK_ReadMem (0x080019FC, 0x003C Bytes, ...) -- CPU_ReadMem(64 bytes @ 0x08001A00) -- Updating C cache (64 bytes @ 0x08001A00) -- Read from C cache (60 bytes @ 0x080019FC) - Data: 09 E0 E4 68 20 68 31 68 88 42 04 D1 A7 60 00 20 ...  returns 0x00 (0001ms, 0787ms total)
T151C 019:578 JLINK_Step() -- Read from C cache (2 bytes @ 0x080019FA) -- CPU_ReadMem(4 bytes @ 0xE0001004) -- CPU_ReadMem(64 bytes @ 0x20000000) -- Updating C cache (64 bytes @ 0x20000000) -- Read from C cache (4 bytes @ 0x20000028) -- Simulated  returns 0x00 (0003ms, 0790ms total)
T151C 019:581 JLINK_ReadReg(R15 (PC))  returns 0x080019FC (0001ms, 0791ms total)
T151C 019:582 JLINK_ReadReg(XPSR)  returns 0x01000000 (0000ms, 0791ms total)
T151C 019:582 JLINK_ReadReg(R0)  returns 0x00000048 (0000ms, 0791ms total)
T151C 019:582 JLINK_ReadReg(R1)  returns 0x00000064 (0000ms, 0791ms total)
T151C 019:582 JLINK_ReadReg(R2)  returns 0x20000000 (0000ms, 0791ms total)
T151C 019:582 JLINK_ReadReg(R3)  returns 0x0100001C (0000ms, 0791ms total)
T151C 019:582 JLINK_ReadReg(R4)  returns 0x20000050 (0000ms, 0791ms total)
T151C 019:582 JLINK_ReadReg(R5)  returns 0x20000028 (0000ms, 0791ms total)
T151C 019:582 JLINK_ReadReg(R6)  returns 0x20000638 (0000ms, 0791ms total)
T151C 019:582 JLINK_ReadReg(R7)  returns 0x00001388 (0000ms, 0791ms total)
T151C 019:582 JLINK_ReadReg(R8)  returns 0x00000000 (0000ms, 0791ms total)
T151C 019:582 JLINK_ReadReg(R9)  returns 0x20000160 (0000ms, 0791ms total)
T151C 019:582 JLINK_ReadReg(R10)  returns 0x00000000 (0000ms, 0791ms total)
T151C 019:582 JLINK_ReadReg(R11)  returns 0x00000000 (0000ms, 0791ms total)
T151C 019:582 JLINK_ReadReg(R12)  returns 0x00000004 (0000ms, 0791ms total)
T151C 019:582 JLINK_ReadReg(R13 (SP))  returns 0x20000610 (0000ms, 0791ms total)
T151C 019:582 JLINK_ReadReg(R14)  returns 0x08001B9F (0000ms, 0791ms total)
T151C 019:582 JLINK_ReadReg(R15 (PC))  returns 0x080019FC (0000ms, 0791ms total)
T151C 019:582 JLINK_ReadReg(XPSR)  returns 0x01000000 (0000ms, 0791ms total)
T151C 019:582 JLINK_ReadReg(MSP)  returns 0x20000610 (0001ms, 0792ms total)
T151C 019:583 JLINK_ReadReg(PSP)  returns 0x20001000 (0000ms, 0792ms total)
T151C 019:583 JLINK_ReadReg(CFBP)  returns 0x00000000 (0000ms, 0792ms total)
T1884 019:585 JLINK_ReadMem (0x20000624, 0x0004 Bytes, ...) -- Read from C cache (4 bytes @ 0x20000624) - Data: 93 1A 00 08  returns 0x00 (0001ms, 0793ms total)
T1884 019:586 JLINK_ReadMem (0x20000610, 0x0004 Bytes, ...) -- Read from C cache (4 bytes @ 0x20000610) - Data: 54 1D 00 08  returns 0x00 (0000ms, 0793ms total)
T1884 019:586 JLINK_ReadMem (0x20000614, 0x0004 Bytes, ...) -- Read from C cache (4 bytes @ 0x20000614) - Data: 38 06 00 20  returns 0x00 (0000ms, 0793ms total)
T1884 019:586 JLINK_ReadMem (0x20000618, 0x0004 Bytes, ...) -- Read from C cache (4 bytes @ 0x20000618) - Data: 00 00 00 00  returns 0x00 (0000ms, 0793ms total)
T1884 019:586 JLINK_ReadMem (0x2000061C, 0x0004 Bytes, ...) -- Read from C cache (4 bytes @ 0x2000061C) - Data: 00 00 00 00  returns 0x00 (0000ms, 0793ms total)
T1884 019:586 JLINK_ReadMem (0x20000620, 0x0004 Bytes, ...) -- Read from C cache (4 bytes @ 0x20000620) - Data: 00 00 00 00  returns 0x00 (0000ms, 0793ms total)
T1884 019:586 JLINK_ReadMem (0x20000634, 0x0004 Bytes, ...) -- Read from C cache (4 bytes @ 0x20000634) - Data: 1F 1C 00 08  returns 0x00 (0000ms, 0793ms total)
T1884 019:586 JLINK_ReadMem (0x20000628, 0x0004 Bytes, ...) -- Read from C cache (4 bytes @ 0x20000628) - Data: 54 1D 00 08  returns 0x00 (0000ms, 0793ms total)
T1884 019:586 JLINK_ReadMem (0x2000062C, 0x0004 Bytes, ...) -- Read from C cache (4 bytes @ 0x2000062C) - Data: 54 1D 00 08  returns 0x00 (0000ms, 0793ms total)
T1884 019:586 JLINK_ReadMem (0x20000630, 0x0004 Bytes, ...) -- Read from C cache (4 bytes @ 0x20000630) - Data: 00 00 00 00  returns 0x00 (0000ms, 0793ms total)
T1884 019:586 JLINK_ReadMem (0x20000644, 0x0004 Bytes, ...) -- Read from C cache (4 bytes @ 0x20000644) - Data: 51 1C 00 08  returns 0x00 (0000ms, 0793ms total)
T1884 019:587 JLINK_ReadMem (0x00000000, 0x0001 Bytes, ...) -- Read from C cache (1 bytes @ 0x08000000) - Data: 48  returns 0x00 (0000ms, 0793ms total)
T1884 019:600 JLINK_ReadMem (0x080019FA, 0x0002 Bytes, ...) -- Read from C cache (2 bytes @ 0x080019FA) - Data: 2C 68  returns 0x00 (0000ms, 0793ms total)
T1884 019:600 JLINK_ReadMem (0x080019FC, 0x003C Bytes, ...) -- Read from C cache (60 bytes @ 0x080019FC) - Data: 09 E0 E4 68 20 68 31 68 88 42 04 D1 A7 60 00 20 ...  returns 0x00 (0000ms, 0793ms total)
T151C 020:130 JLINK_Step() -- Read from C cache (2 bytes @ 0x080019FC) -- Simulated  returns 0x00 (0001ms, 0794ms total)
T151C 020:131 JLINK_ReadReg(R15 (PC))  returns 0x08001A12 (0000ms, 0794ms total)
T151C 020:131 JLINK_ReadReg(XPSR)  returns 0x01000000 (0000ms, 0794ms total)
T151C 020:131 JLINK_ReadReg(R0)  returns 0x00000048 (0000ms, 0794ms total)
T151C 020:131 JLINK_ReadReg(R1)  returns 0x00000064 (0000ms, 0794ms total)
T151C 020:132 JLINK_ReadReg(R2)  returns 0x20000000 (0000ms, 0794ms total)
T151C 020:132 JLINK_ReadReg(R3)  returns 0x0100001C (0000ms, 0794ms total)
T151C 020:132 JLINK_ReadReg(R4)  returns 0x20000050 (0000ms, 0794ms total)
T151C 020:132 JLINK_ReadReg(R5)  returns 0x20000028 (0000ms, 0794ms total)
T151C 020:132 JLINK_ReadReg(R6)  returns 0x20000638 (0000ms, 0794ms total)
T151C 020:132 JLINK_ReadReg(R7)  returns 0x00001388 (0000ms, 0794ms total)
T151C 020:132 JLINK_ReadReg(R8)  returns 0x00000000 (0000ms, 0794ms total)
T151C 020:132 JLINK_ReadReg(R9)  returns 0x20000160 (0000ms, 0794ms total)
T151C 020:132 JLINK_ReadReg(R10)  returns 0x00000000 (0000ms, 0794ms total)
T151C 020:132 JLINK_ReadReg(R11)  returns 0x00000000 (0000ms, 0794ms total)
T151C 020:132 JLINK_ReadReg(R12)  returns 0x00000004 (0000ms, 0794ms total)
T151C 020:132 JLINK_ReadReg(R13 (SP))  returns 0x20000610 (0000ms, 0794ms total)
T151C 020:132 JLINK_ReadReg(R14)  returns 0x08001B9F (0000ms, 0794ms total)
T151C 020:132 JLINK_ReadReg(R15 (PC))  returns 0x08001A12 (0000ms, 0794ms total)
T151C 020:132 JLINK_ReadReg(XPSR)  returns 0x01000000 (0000ms, 0794ms total)
T151C 020:132 JLINK_ReadReg(MSP)  returns 0x20000610 (0000ms, 0794ms total)
T151C 020:132 JLINK_ReadReg(PSP)  returns 0x20001000 (0000ms, 0794ms total)
T151C 020:132 JLINK_ReadReg(CFBP)  returns 0x00000000 (0001ms, 0795ms total)
T1884 020:136 JLINK_ReadMem (0x20000624, 0x0004 Bytes, ...) -- Read from C cache (4 bytes @ 0x20000624) - Data: 93 1A 00 08  returns 0x00 (0000ms, 0795ms total)
T1884 020:136 JLINK_ReadMem (0x20000610, 0x0004 Bytes, ...) -- Read from C cache (4 bytes @ 0x20000610) - Data: 54 1D 00 08  returns 0x00 (0001ms, 0796ms total)
T1884 020:137 JLINK_ReadMem (0x20000614, 0x0004 Bytes, ...) -- Read from C cache (4 bytes @ 0x20000614) - Data: 38 06 00 20  returns 0x00 (0000ms, 0796ms total)
T1884 020:137 JLINK_ReadMem (0x20000618, 0x0004 Bytes, ...) -- Read from C cache (4 bytes @ 0x20000618) - Data: 00 00 00 00  returns 0x00 (0000ms, 0796ms total)
T1884 020:137 JLINK_ReadMem (0x2000061C, 0x0004 Bytes, ...) -- Read from C cache (4 bytes @ 0x2000061C) - Data: 00 00 00 00  returns 0x00 (0000ms, 0796ms total)
T1884 020:137 JLINK_ReadMem (0x20000620, 0x0004 Bytes, ...) -- Read from C cache (4 bytes @ 0x20000620) - Data: 00 00 00 00  returns 0x00 (0000ms, 0796ms total)
T1884 020:137 JLINK_ReadMem (0x20000634, 0x0004 Bytes, ...) -- Read from C cache (4 bytes @ 0x20000634) - Data: 1F 1C 00 08  returns 0x00 (0000ms, 0796ms total)
T1884 020:137 JLINK_ReadMem (0x20000628, 0x0004 Bytes, ...) -- Read from C cache (4 bytes @ 0x20000628) - Data: 54 1D 00 08  returns 0x00 (0000ms, 0796ms total)
T1884 020:137 JLINK_ReadMem (0x2000062C, 0x0004 Bytes, ...) -- Read from C cache (4 bytes @ 0x2000062C) - Data: 54 1D 00 08  returns 0x00 (0000ms, 0796ms total)
T1884 020:137 JLINK_ReadMem (0x20000630, 0x0004 Bytes, ...) -- Read from C cache (4 bytes @ 0x20000630) - Data: 00 00 00 00  returns 0x00 (0000ms, 0796ms total)
T1884 020:137 JLINK_ReadMem (0x20000644, 0x0004 Bytes, ...) -- Read from C cache (4 bytes @ 0x20000644) - Data: 51 1C 00 08  returns 0x00 (0000ms, 0796ms total)
T1884 020:137 JLINK_ReadMem (0x00000000, 0x0001 Bytes, ...) -- Read from C cache (1 bytes @ 0x08000000) - Data: 48  returns 0x00 (0000ms, 0796ms total)
T151C 020:345 JLINK_ReadMem (0x08001A12, 0x0002 Bytes, ...) -- Read from C cache (2 bytes @ 0x08001A12) - Data: E0 68  returns 0x00 (0000ms, 0796ms total)
T151C 020:345 JLINK_ReadMem (0x08001A14, 0x003C Bytes, ...) -- CPU_ReadMem(64 bytes @ 0x08001A40) -- Updating C cache (64 bytes @ 0x08001A40) -- Read from C cache (60 bytes @ 0x08001A14) - Data: 00 28 F2 D1 10 20 00 F0 55 F9 E0 60 E4 68 0C B9 ...  returns 0x00 (0001ms, 0797ms total)
T151C 020:346 JLINK_Step() -- Read from C cache (2 bytes @ 0x08001A12) -- CPU_ReadMem(64 bytes @ 0x20000040) -- Updating C cache (64 bytes @ 0x20000040) -- Read from C cache (4 bytes @ 0x2000005C) -- Simulated  returns 0x00 (0001ms, 0798ms total)
T151C 020:347 JLINK_ReadReg(R15 (PC))  returns 0x08001A14 (0001ms, 0799ms total)
T151C 020:348 JLINK_ReadReg(XPSR)  returns 0x01000000 (0000ms, 0799ms total)
T151C 020:348 JLINK_Step() -- Read from C cache (2 bytes @ 0x08001A14) -- Simulated  returns 0x00 (0000ms, 0799ms total)
T151C 020:348 JLINK_ReadReg(R15 (PC))  returns 0x08001A16 (0000ms, 0799ms total)
T151C 020:348 JLINK_ReadReg(XPSR)  returns 0x61000000 (0000ms, 0799ms total)
T151C 020:348 JLINK_Step() -- Read from C cache (2 bytes @ 0x08001A16) -- Simulated  returns 0x00 (0000ms, 0799ms total)
T151C 020:348 JLINK_ReadReg(R15 (PC))  returns 0x08001A18 (0000ms, 0799ms total)
T151C 020:348 JLINK_ReadReg(XPSR)  returns 0x61000000 (0000ms, 0799ms total)
T151C 020:348 JLINK_ReadReg(R0)  returns 0x00000000 (0000ms, 0799ms total)
T151C 020:348 JLINK_ReadReg(R1)  returns 0x00000064 (0000ms, 0799ms total)
T151C 020:348 JLINK_ReadReg(R2)  returns 0x20000000 (0000ms, 0799ms total)
T151C 020:348 JLINK_ReadReg(R3)  returns 0x0100001C (0000ms, 0799ms total)
T151C 020:348 JLINK_ReadReg(R4)  returns 0x20000050 (0001ms, 0800ms total)
T151C 020:349 JLINK_ReadReg(R5)  returns 0x20000028 (0000ms, 0800ms total)
T151C 020:349 JLINK_ReadReg(R6)  returns 0x20000638 (0000ms, 0800ms total)
T151C 020:349 JLINK_ReadReg(R7)  returns 0x00001388 (0000ms, 0800ms total)
T151C 020:349 JLINK_ReadReg(R8)  returns 0x00000000 (0000ms, 0800ms total)
T151C 020:349 JLINK_ReadReg(R9)  returns 0x20000160 (0000ms, 0800ms total)
T151C 020:349 JLINK_ReadReg(R10)  returns 0x00000000 (0000ms, 0800ms total)
T151C 020:349 JLINK_ReadReg(R11)  returns 0x00000000 (0000ms, 0800ms total)
T151C 020:349 JLINK_ReadReg(R12)  returns 0x00000004 (0000ms, 0800ms total)
T151C 020:349 JLINK_ReadReg(R13 (SP))  returns 0x20000610 (0000ms, 0800ms total)
T151C 020:349 JLINK_ReadReg(R14)  returns 0x08001B9F (0000ms, 0800ms total)
T151C 020:349 JLINK_ReadReg(R15 (PC))  returns 0x08001A18 (0000ms, 0800ms total)
T151C 020:349 JLINK_ReadReg(XPSR)  returns 0x61000000 (0000ms, 0800ms total)
T151C 020:349 JLINK_ReadReg(MSP)  returns 0x20000610 (0000ms, 0800ms total)
T151C 020:349 JLINK_ReadReg(PSP)  returns 0x20001000 (0000ms, 0800ms total)
T151C 020:349 JLINK_ReadReg(CFBP)  returns 0x00000000 (0000ms, 0800ms total)
T1884 020:351 JLINK_ReadMem (0x20000624, 0x0004 Bytes, ...) -- Read from C cache (4 bytes @ 0x20000624) - Data: 93 1A 00 08  returns 0x00 (0000ms, 0800ms total)
T1884 020:351 JLINK_ReadMem (0x20000610, 0x0004 Bytes, ...) -- Read from C cache (4 bytes @ 0x20000610) - Data: 54 1D 00 08  returns 0x00 (0000ms, 0800ms total)
T1884 020:351 JLINK_ReadMem (0x20000614, 0x0004 Bytes, ...) -- Read from C cache (4 bytes @ 0x20000614) - Data: 38 06 00 20  returns 0x00 (0000ms, 0800ms total)
